!Agilent Technologies,E5071C,MY46107106,A.09.54
!Date: Thu Jun 06 16:58:22 2013
!Data & Calibration Information:
!Freq	S11:SOLT2(ON)	S21:SOLT2(ON)	S12:SOLT2(ON)	S22:SOLT2(ON)
# Hz S dB R 50
1000000000	-5.614918e+000	1.603352e+002	1.614914e+001	-2.205284e+001	-2.830268e+001	-4.838155e+001	-1.894080e+001	7.779208e+001
1020000000	-5.927549e+000	1.584340e+002	1.594564e+001	-2.794167e+001	-2.809445e+001	-5.414272e+001	-1.763374e+001	9.255580e+001
1040000000	-6.277639e+000	1.576296e+002	1.553251e+001	-3.481112e+001	-2.809459e+001	-6.186633e+001	-1.469289e+001	1.009903e+002
1060000000	-6.460122e+000	1.591919e+002	1.462818e+001	-4.252056e+001	-2.856944e+001	-7.092906e+001	-1.109289e+001	9.734783e+001
1080000000	-5.982358e+000	1.616779e+002	1.264906e+001	-4.673945e+001	-3.024253e+001	-7.920702e+001	-7.948677e+000	8.052263e+001
1100000000	-4.933993e+000	1.590385e+002	1.105149e+001	-3.415432e+001	-3.286705e+001	-7.150873e+001	-6.847008e+000	5.439463e+001
1120000000	-4.480992e+000	1.520151e+002	1.234073e+001	-2.610462e+001	-3.216515e+001	-5.410437e+001	-7.866583e+000	3.345935e+001
1140000000	-4.533202e+000	1.460313e+002	1.324362e+001	-2.829603e+001	-3.049033e+001	-5.181538e+001	-9.137783e+000	2.182659e+001
1160000000	-4.645822e+000	1.412727e+002	1.376081e+001	-3.146933e+001	-2.950773e+001	-5.326804e+001	-1.012060e+001	1.213652e+001
1180000000	-4.844340e+000	1.369947e+002	1.410100e+001	-3.592206e+001	-2.866981e+001	-5.644982e+001	-1.123535e+001	4.736477e+000
1200000000	-5.049744e+000	1.332510e+002	1.425291e+001	-4.035811e+001	-2.808700e+001	-6.063175e+001	-1.222170e+001	-3.840076e-001
1220000000	-5.237308e+000	1.297621e+002	1.430828e+001	-4.449012e+001	-2.762484e+001	-6.477695e+001	-1.299807e+001	-4.745803e+000
1240000000	-5.419317e+000	1.267130e+002	1.430475e+001	-4.855215e+001	-2.731040e+001	-6.895906e+001	-1.373450e+001	-7.980303e+000
1260000000	-5.547506e+000	1.238378e+002	1.427412e+001	-5.232180e+001	-2.713316e+001	-7.257275e+001	-1.436950e+001	-1.123316e+001
1280000000	-5.682871e+000	1.209250e+002	1.422344e+001	-5.605679e+001	-2.688482e+001	-7.581349e+001	-1.499069e+001	-1.383693e+001
1300000000	-5.838179e+000	1.182754e+002	1.416745e+001	-5.963542e+001	-2.665086e+001	-7.923476e+001	-1.549906e+001	-1.679141e+001
1320000000	-5.958356e+000	1.154566e+002	1.412073e+001	-6.311028e+001	-2.648913e+001	-8.226615e+001	-1.602792e+001	-2.081445e+001
1340000000	-6.097806e+000	1.125589e+002	1.405967e+001	-6.677544e+001	-2.630637e+001	-8.557085e+001	-1.666262e+001	-2.385011e+001
1360000000	-6.229726e+000	1.098990e+002	1.397621e+001	-7.037301e+001	-2.612405e+001	-8.917419e+001	-1.717369e+001	-2.596331e+001
1380000000	-6.332862e+000	1.073263e+002	1.387281e+001	-7.369906e+001	-2.598120e+001	-9.241158e+001	-1.748947e+001	-2.741968e+001
1400000000	-6.435635e+000	1.045450e+002	1.379376e+001	-7.696666e+001	-2.587267e+001	-9.522421e+001	-1.794876e+001	-3.029144e+001
1420000000	-6.537621e+000	1.020824e+002	1.370410e+001	-8.030671e+001	-2.569435e+001	-9.847109e+001	-1.836580e+001	-3.163233e+001
1440000000	-6.594650e+000	9.967440e+001	1.361831e+001	-8.348137e+001	-2.565059e+001	-1.012493e+002	-1.873568e+001	-3.412150e+001
1460000000	-6.680284e+000	9.725889e+001	1.354362e+001	-8.665705e+001	-2.554827e+001	-1.042078e+002	-1.927049e+001	-3.749817e+001
1480000000	-6.754803e+000	9.478496e+001	1.348267e+001	-8.985529e+001	-2.541602e+001	-1.067777e+002	-1.986115e+001	-4.096752e+001
1500000000	-6.797516e+000	9.214179e+001	1.341903e+001	-9.304361e+001	-2.530079e+001	-1.093750e+002	-2.051044e+001	-4.459392e+001
1520000000	-6.856351e+000	8.928212e+001	1.336136e+001	-9.629571e+001	-2.515408e+001	-1.117950e+002	-2.127971e+001	-4.768847e+001
1540000000	-6.934259e+000	8.639927e+001	1.330099e+001	-9.955945e+001	-2.498627e+001	-1.146528e+002	-2.196309e+001	-5.135048e+001
1560000000	-6.997691e+000	8.340932e+001	1.323690e+001	-1.029300e+002	-2.482490e+001	-1.172732e+002	-2.284944e+001	-5.394752e+001
1580000000	-7.079319e+000	8.061774e+001	1.315680e+001	-1.061759e+002	-2.468054e+001	-1.201370e+002	-2.376148e+001	-5.654362e+001
1600000000	-7.141001e+000	7.792140e+001	1.308300e+001	-1.094662e+002	-2.455550e+001	-1.227954e+002	-2.495444e+001	-5.966829e+001
1620000000	-7.206062e+000	7.551118e+001	1.301643e+001	-1.127541e+002	-2.439930e+001	-1.256727e+002	-2.634187e+001	-6.124917e+001
1640000000	-7.289814e+000	7.305921e+001	1.293256e+001	-1.160270e+002	-2.426687e+001	-1.285543e+002	-2.757023e+001	-6.292214e+001
1660000000	-7.374894e+000	7.039310e+001	1.286454e+001	-1.192887e+002	-2.410519e+001	-1.313878e+002	-2.926073e+001	-6.455985e+001
1680000000	-7.481500e+000	6.764603e+001	1.279459e+001	-1.225423e+002	-2.396369e+001	-1.341716e+002	-3.082590e+001	-6.668394e+001
1700000000	-7.608127e+000	6.490740e+001	1.270958e+001	-1.258069e+002	-2.384257e+001	-1.373029e+002	-3.256802e+001	-6.559724e+001
1720000000	-7.708974e+000	6.219724e+001	1.261509e+001	-1.290388e+002	-2.370669e+001	-1.405464e+002	-3.411273e+001	-6.514010e+001
1740000000	-7.767669e+000	5.950646e+001	1.253280e+001	-1.322269e+002	-2.357848e+001	-1.435360e+002	-3.597080e+001	-6.454486e+001
1760000000	-7.824942e+000	5.700026e+001	1.244546e+001	-1.353351e+002	-2.348458e+001	-1.463022e+002	-3.797320e+001	-6.567768e+001
1780000000	-7.877925e+000	5.457277e+001	1.236749e+001	-1.385025e+002	-2.339519e+001	-1.492130e+002	-4.154454e+001	-6.620394e+001
1800000000	-7.937501e+000	5.238611e+001	1.229504e+001	-1.415805e+002	-2.328382e+001	-1.520928e+002	-4.614490e+001	-7.538529e+001
1820000000	-8.023518e+000	5.002254e+001	1.222517e+001	-1.447014e+002	-2.316672e+001	-1.550066e+002	-5.355470e+001	-1.100324e+002
1840000000	-8.108720e+000	4.745743e+001	1.216447e+001	-1.477802e+002	-2.307474e+001	-1.578101e+002	-5.082938e+001	1.618332e+002
1860000000	-8.220563e+000	4.463235e+001	1.209753e+001	-1.509611e+002	-2.296284e+001	-1.607041e+002	-4.562189e+001	1.313716e+002
1880000000	-8.311601e+000	4.194349e+001	1.202939e+001	-1.540821e+002	-2.284091e+001	-1.636097e+002	-4.251750e+001	1.214183e+002
1900000000	-8.407996e+000	3.911648e+001	1.195763e+001	-1.572339e+002	-2.274287e+001	-1.664794e+002	-4.099052e+001	1.068391e+002
1920000000	-8.470230e+000	3.663397e+001	1.189072e+001	-1.603272e+002	-2.265341e+001	-1.692055e+002	-3.910826e+001	1.005704e+002
1940000000	-8.557510e+000	3.415458e+001	1.182392e+001	-1.634236e+002	-2.255927e+001	-1.721560e+002	-3.716653e+001	9.066659e+001
1960000000	-8.672986e+000	3.190305e+001	1.176197e+001	-1.665415e+002	-2.243754e+001	-1.750057e+002	-3.531562e+001	8.676411e+001
1980000000	-8.790824e+000	2.965628e+001	1.171091e+001	-1.697155e+002	-2.234308e+001	-1.780978e+002	-3.378728e+001	8.084337e+001
2000000000	-8.928996e+000	2.713461e+001	1.165135e+001	-1.728661e+002	-2.224886e+001	1.792068e+002	-3.234742e+001	7.468950e+001
2020000000	-9.060824e+000	2.450011e+001	1.159243e+001	-1.760614e+002	-2.213724e+001	1.760879e+002	-3.141671e+001	7.003325e+001
2040000000	-9.174398e+000	2.189046e+001	1.153555e+001	-1.792203e+002	-2.204815e+001	1.732898e+002	-3.042690e+001	6.445663e+001
2060000000	-9.279896e+000	1.921265e+001	1.147990e+001	1.776265e+002	-2.195560e+001	1.704175e+002	-2.964800e+001	5.927396e+001
2080000000	-9.382876e+000	1.659148e+001	1.142228e+001	1.744563e+002	-2.187386e+001	1.673197e+002	-2.865409e+001	5.305551e+001
2100000000	-9.542507e+000	1.458905e+001	1.135956e+001	1.713049e+002	-2.174339e+001	1.643460e+002	-2.768186e+001	4.855288e+001
2120000000	-9.713692e+000	1.251043e+001	1.128948e+001	1.681107e+002	-2.163742e+001	1.612929e+002	-2.664909e+001	4.368636e+001
2140000000	-9.847280e+000	1.077740e+001	1.123537e+001	1.649389e+002	-2.157098e+001	1.582630e+002	-2.585078e+001	4.001186e+001
2160000000	-1.006012e+001	8.866002e+000	1.118139e+001	1.617779e+002	-2.146652e+001	1.554682e+002	-2.507876e+001	3.743673e+001
2180000000	-1.026395e+001	6.659720e+000	1.112253e+001	1.585903e+002	-2.138119e+001	1.523163e+002	-2.438334e+001	3.364600e+001
2200000000	-1.044460e+001	4.335698e+000	1.107097e+001	1.553904e+002	-2.128638e+001	1.491203e+002	-2.379252e+001	3.037328e+001
2220000000	-1.059421e+001	1.908990e+000	1.101590e+001	1.521564e+002	-2.123266e+001	1.461163e+002	-2.329587e+001	2.781463e+001
2240000000	-1.070423e+001	-4.255697e-001	1.096350e+001	1.489334e+002	-2.114778e+001	1.432824e+002	-2.261635e+001	2.546623e+001
2260000000	-1.082988e+001	-2.727392e+000	1.090966e+001	1.456571e+002	-2.105429e+001	1.402908e+002	-2.203206e+001	2.307082e+001
2280000000	-1.099197e+001	-4.578794e+000	1.085152e+001	1.424762e+002	-2.096639e+001	1.372849e+002	-2.152222e+001	2.086108e+001
2300000000	-1.119362e+001	-6.250840e+000	1.079693e+001	1.392646e+002	-2.084996e+001	1.341089e+002	-2.116695e+001	1.867894e+001
2320000000	-1.142900e+001	-8.014445e+000	1.074226e+001	1.360636e+002	-2.078114e+001	1.310244e+002	-2.085932e+001	1.642116e+001
2340000000	-1.166904e+001	-9.954368e+000	1.069557e+001	1.328062e+002	-2.069319e+001	1.279422e+002	-2.061497e+001	1.345068e+001
2360000000	-1.194973e+001	-1.233710e+001	1.064213e+001	1.295075e+002	-2.062829e+001	1.248052e+002	-2.036806e+001	1.006843e+001
2380000000	-1.218070e+001	-1.515813e+001	1.057405e+001	1.261824e+002	-2.060538e+001	1.217568e+002	-2.012581e+001	6.317523e+000
2400000000	-1.240854e+001	-1.819428e+001	1.050707e+001	1.230007e+002	-2.052998e+001	1.189710e+002	-1.997033e+001	1.135870e+000
2420000000	-1.268455e+001	-2.064886e+001	1.046033e+001	1.198525e+002	-2.044392e+001	1.160308e+002	-2.008252e+001	-2.042045e+000
2440000000	-1.293512e+001	-2.231010e+001	1.041939e+001	1.167230e+002	-2.033088e+001	1.132382e+002	-2.001314e+001	-4.308343e+000
2460000000	-1.319560e+001	-2.373348e+001	1.038314e+001	1.135109e+002	-2.023855e+001	1.101706e+002	-1.988185e+001	-6.775600e+000
2480000000	-1.350408e+001	-2.494009e+001	1.034503e+001	1.102953e+002	-2.014510e+001	1.073002e+002	-1.976293e+001	-9.599844e+000
2500000000	-1.394909e+001	-2.674721e+001	1.030907e+001	1.070161e+002	-2.003526e+001	1.040845e+002	-1.971499e+001	-1.301897e+001
2520000000	-1.446477e+001	-2.853500e+001	1.027442e+001	1.037262e+002	-1.994473e+001	1.008549e+002	-1.968257e+001	-1.657177e+001
2540000000	-1.501398e+001	-3.037341e+001	1.023500e+001	1.003638e+002	-1.984127e+001	9.780092e+001	-1.961068e+001	-2.048044e+001
2560000000	-1.553142e+001	-3.245919e+001	1.020036e+001	9.695023e+001	-1.975739e+001	9.471270e+001	-1.953894e+001	-2.498080e+001
2580000000	-1.603841e+001	-3.387484e+001	1.016207e+001	9.357617e+001	-1.965297e+001	9.144349e+001	-1.938630e+001	-2.982965e+001
2600000000	-1.650815e+001	-3.518567e+001	1.012617e+001	9.021651e+001	-1.957006e+001	8.827802e+001	-1.924573e+001	-3.430719e+001
2620000000	-1.692801e+001	-3.566534e+001	1.009136e+001	8.688345e+001	-1.950972e+001	8.495556e+001	-1.909172e+001	-3.844914e+001
2640000000	-1.744901e+001	-3.613156e+001	1.006395e+001	8.350930e+001	-1.941386e+001	8.192428e+001	-1.896549e+001	-4.256423e+001
2660000000	-1.813675e+001	-3.606213e+001	1.003388e+001	8.009614e+001	-1.932813e+001	7.866844e+001	-1.882345e+001	-4.686713e+001
2680000000	-1.900605e+001	-3.575385e+001	1.000372e+001	7.655370e+001	-1.923499e+001	7.531794e+001	-1.879648e+001	-5.119924e+001
2700000000	-1.999025e+001	-3.534634e+001	9.957196e+000	7.298552e+001	-1.913551e+001	7.210044e+001	-1.880295e+001	-5.578893e+001
2720000000	-2.102236e+001	-3.344689e+001	9.915964e+000	6.942066e+001	-1.905517e+001	6.877032e+001	-1.874504e+001	-6.104128e+001
2740000000	-2.174217e+001	-3.024111e+001	9.876560e+000	6.590383e+001	-1.901355e+001	6.536377e+001	-1.861376e+001	-6.605191e+001
2760000000	-2.247985e+001	-2.643357e+001	9.841480e+000	6.231315e+001	-1.890378e+001	6.212904e+001	-1.850697e+001	-7.093662e+001
2780000000	-2.307160e+001	-1.917472e+001	9.796311e+000	5.875447e+001	-1.882385e+001	5.869904e+001	-1.829906e+001	-7.553416e+001
2800000000	-2.328629e+001	-9.513750e+000	9.747034e+000	5.515948e+001	-1.874231e+001	5.531584e+001	-1.821549e+001	-8.025971e+001
2820000000	-2.322763e+001	-1.191489e-001	9.704737e+000	5.160572e+001	-1.868644e+001	5.195115e+001	-1.817381e+001	-8.510415e+001
2840000000	-2.300132e+001	9.459360e+000	9.664470e+000	4.794341e+001	-1.862050e+001	4.844447e+001	-1.822766e+001	-9.049308e+001
2860000000	-2.268485e+001	1.820084e+001	9.616165e+000	4.427019e+001	-1.855113e+001	4.497186e+001	-1.832367e+001	-9.599398e+001
2880000000	-2.212292e+001	2.557820e+001	9.565247e+000	4.055019e+001	-1.848663e+001	4.141115e+001	-1.834224e+001	-1.020684e+002
2900000000	-2.135805e+001	3.053272e+001	9.509700e+000	3.676607e+001	-1.844605e+001	3.823493e+001	-1.834096e+001	-1.076765e+002
2920000000	-2.038573e+001	3.264066e+001	9.443934e+000	3.298691e+001	-1.838052e+001	3.461217e+001	-1.825749e+001	-1.125434e+002
2940000000	-1.936316e+001	3.356946e+001	9.385727e+000	2.923605e+001	-1.831178e+001	3.108197e+001	-1.820051e+001	-1.171707e+002
2960000000	-1.830683e+001	3.337734e+001	9.328112e+000	2.544423e+001	-1.822865e+001	2.747765e+001	-1.819609e+001	-1.214316e+002
2980000000	-1.728093e+001	3.306608e+001	9.267038e+000	2.167116e+001	-1.818987e+001	2.390043e+001	-1.836157e+001	-1.266648e+002
3000000000	-1.635941e+001	3.333883e+001	9.202916e+000	1.791309e+001	-1.810075e+001	2.026945e+001	-1.844270e+001	-1.326445e+002
3020000000	-1.549083e+001	3.306980e+001	9.137539e+000	1.404158e+001	-1.806155e+001	1.651728e+001	-1.865032e+001	-1.399044e+002
3040000000	-1.471951e+001	3.241496e+001	9.059057e+000	1.014852e+001	-1.800333e+001	1.288757e+001	-1.878214e+001	-1.478844e+002
3060000000	-1.402074e+001	3.122902e+001	8.977867e+000	6.187093e+000	-1.796221e+001	9.054759e+000	-1.887282e+001	-1.560043e+002
3080000000	-1.334739e+001	2.928016e+001	8.898553e+000	2.178638e+000	-1.792096e+001	5.360230e+000	-1.884383e+001	-1.638045e+002
3100000000	-1.270978e+001	2.676164e+001	8.803959e+000	-1.771412e+000	-1.789819e+001	1.381405e+000	-1.884063e+001	-1.718830e+002
3120000000	-1.207866e+001	2.403727e+001	8.717810e+000	-5.717215e+000	-1.786421e+001	-2.406398e+000	-1.879268e+001	-1.798179e+002
3140000000	-1.145430e+001	2.136113e+001	8.618965e+000	-9.742269e+000	-1.783931e+001	-6.345226e+000	-1.868756e+001	1.720243e+002
3160000000	-1.087195e+001	1.885643e+001	8.519502e+000	-1.374206e+001	-1.782717e+001	-1.023661e+001	-1.847223e+001	1.631328e+002
3180000000	-1.032256e+001	1.656611e+001	8.409840e+000	-1.780243e+001	-1.780717e+001	-1.429645e+001	-1.823003e+001	1.534974e+002
3200000000	-9.796097e+000	1.387841e+001	8.292758e+000	-2.189731e+001	-1.780445e+001	-1.843521e+001	-1.787340e+001	1.444818e+002
3220000000	-9.321238e+000	1.101569e+001	8.168325e+000	-2.596682e+001	-1.782700e+001	-2.259692e+001	-1.738514e+001	1.352485e+002
3240000000	-8.849729e+000	7.893508e+000	8.037447e+000	-3.006170e+001	-1.784182e+001	-2.647034e+001	-1.692307e+001	1.263351e+002
3260000000	-8.386694e+000	4.383625e+000	7.910653e+000	-3.415281e+001	-1.788679e+001	-3.071973e+001	-1.637180e+001	1.181207e+002
3280000000	-7.957647e+000	1.006080e+000	7.781174e+000	-3.826964e+001	-1.793678e+001	-3.470551e+001	-1.589473e+001	1.104762e+002
3300000000	-7.523298e+000	-2.373592e+000	7.639862e+000	-4.241092e+001	-1.796115e+001	-3.880860e+001	-1.542874e+001	1.034600e+002
3320000000	-7.110979e+000	-5.617105e+000	7.498884e+000	-4.655547e+001	-1.801028e+001	-4.286332e+001	-1.495468e+001	9.641977e+001
3340000000	-6.731503e+000	-8.763185e+000	7.342313e+000	-5.072066e+001	-1.807188e+001	-4.699164e+001	-1.447246e+001	8.983318e+001
3360000000	-6.381332e+000	-1.191640e+001	7.171390e+000	-5.494345e+001	-1.814878e+001	-5.124836e+001	-1.401285e+001	8.318842e+001
3380000000	-6.055438e+000	-1.519548e+001	7.006579e+000	-5.915287e+001	-1.822130e+001	-5.536033e+001	-1.356136e+001	7.683532e+001
3400000000	-5.752243e+000	-1.867402e+001	6.828666e+000	-6.341002e+001	-1.830360e+001	-5.960604e+001	-1.311162e+001	7.086308e+001
3420000000	-5.448808e+000	-2.222924e+001	6.640417e+000	-6.760880e+001	-1.840426e+001	-6.368851e+001	-1.269240e+001	6.493685e+001
3440000000	-5.152447e+000	-2.582220e+001	6.442305e+000	-7.188490e+001	-1.852375e+001	-6.792847e+001	-1.229655e+001	5.924269e+001
3460000000	-4.856483e+000	-2.932450e+001	6.239218e+000	-7.608331e+001	-1.864978e+001	-7.203808e+001	-1.192306e+001	5.348753e+001
3480000000	-4.574456e+000	-3.270520e+001	6.029467e+000	-8.037667e+001	-1.876676e+001	-7.617938e+001	-1.153834e+001	4.763748e+001
3500000000	-4.310480e+000	-3.599875e+001	5.803175e+000	-8.456865e+001	-1.891714e+001	-8.035744e+001	-1.116765e+001	4.182334e+001
3520000000	-4.050149e+000	-3.921483e+001	5.568072e+000	-8.878693e+001	-1.904263e+001	-8.427897e+001	-1.077905e+001	3.610073e+001
3540000000	-3.833387e+000	-4.244200e+001	5.329025e+000	-9.299075e+001	-1.919189e+001	-8.853708e+001	-1.038552e+001	3.071125e+001
3560000000	-3.627026e+000	-4.579366e+001	5.068136e+000	-9.724175e+001	-1.936324e+001	-9.256672e+001	-1.001731e+001	2.544932e+001
3580000000	-3.431562e+000	-4.918570e+001	4.818356e+000	-1.014227e+002	-1.952998e+001	-9.660266e+001	-9.691600e+000	2.031910e+001
3600000000	-3.233696e+000	-5.257140e+001	4.559714e+000	-1.055823e+002	-1.970960e+001	-1.006554e+002	-9.391575e+000	1.522278e+001
3620000000	-3.040353e+000	-5.594270e+001	4.270874e+000	-1.097839e+002	-1.989823e+001	-1.047660e+002	-9.073907e+000	9.894808e+000
3640000000	-2.853294e+000	-5.914913e+001	3.990727e+000	-1.138552e+002	-2.013193e+001	-1.087686e+002	-8.749089e+000	4.539977e+000
3660000000	-2.684123e+000	-6.229899e+001	3.687040e+000	-1.179916e+002	-2.032966e+001	-1.126458e+002	-8.398551e+000	-6.248513e-001
3680000000	-2.529377e+000	-6.532690e+001	3.370366e+000	-1.220241e+002	-2.055176e+001	-1.164330e+002	-8.042011e+000	-5.339919e+000
3700000000	-2.393699e+000	-6.841301e+001	3.057695e+000	-1.259886e+002	-2.076471e+001	-1.204945e+002	-7.711729e+000	-9.919575e+000
3720000000	-2.263034e+000	-7.159343e+001	2.735059e+000	-1.300205e+002	-2.101665e+001	-1.243567e+002	-7.405220e+000	-1.400653e+001
3740000000	-2.154612e+000	-7.481364e+001	2.397882e+000	-1.338901e+002	-2.125806e+001	-1.281426e+002	-7.131957e+000	-1.798600e+001
3760000000	-2.036877e+000	-7.801310e+001	2.069397e+000	-1.377464e+002	-2.148473e+001	-1.319102e+002	-6.897192e+000	-2.208580e+001
3780000000	-1.910475e+000	-8.112084e+001	1.729873e+000	-1.416126e+002	-2.177514e+001	-1.357152e+002	-6.682027e+000	-2.624303e+001
3800000000	-1.799636e+000	-8.408195e+001	1.363211e+000	-1.454136e+002	-2.205061e+001	-1.391433e+002	-6.473104e+000	-3.047015e+001
3820000000	-1.700391e+000	-8.692259e+001	1.004996e+000	-1.492212e+002	-2.231066e+001	-1.431504e+002	-6.240173e+000	-3.469899e+001
3840000000	-1.624183e+000	-8.967352e+001	6.349990e-001	-1.529714e+002	-2.260867e+001	-1.467437e+002	-6.024263e+000	-3.871593e+001
3860000000	-1.555511e+000	-9.253620e+001	2.677186e-001	-1.567101e+002	-2.289748e+001	-1.502974e+002	-5.807207e+000	-4.268207e+001
3880000000	-1.499159e+000	-9.542704e+001	-1.143844e-001	-1.603014e+002	-2.319180e+001	-1.537052e+002	-5.614181e+000	-4.635695e+001
3900000000	-1.437176e+000	-9.833031e+001	-5.043192e-001	-1.638347e+002	-2.348328e+001	-1.571007e+002	-5.444726e+000	-5.002367e+001
3920000000	-1.361826e+000	-1.011777e+002	-9.002055e-001	-1.674157e+002	-2.380374e+001	-1.605882e+002	-5.278609e+000	-5.368284e+001
3940000000	-1.291866e+000	-1.038006e+002	-1.293390e+000	-1.709106e+002	-2.414006e+001	-1.638614e+002	-5.102759e+000	-5.733555e+001
3960000000	-1.222239e+000	-1.061961e+002	-1.695589e+000	-1.741951e+002	-2.443368e+001	-1.673503e+002	-4.959117e+000	-6.098780e+001
3980000000	-1.171056e+000	-1.085459e+002	-2.114114e+000	-1.776365e+002	-2.474847e+001	-1.703315e+002	-4.801642e+000	-6.450397e+001
4000000000	-1.142462e+000	-1.108094e+002	-2.510740e+000	1.790721e+002	-2.510024e+001	-1.737130e+002	-4.670112e+000	-6.803803e+001
4020000000	-1.135107e+000	-1.132038e+002	-2.927672e+000	1.758223e+002	-2.543380e+001	-1.767422e+002	-4.520446e+000	-7.139722e+001
4040000000	-1.129599e+000	-1.157896e+002	-3.343206e+000	1.725902e+002	-2.578797e+001	1.798895e+002	-4.390543e+000	-7.464874e+001
4060000000	-1.109388e+000	-1.183798e+002	-3.756414e+000	1.693986e+002	-2.612029e+001	1.767609e+002	-4.284473e+000	-7.774585e+001
