CITIFILE A.01.01
#Momentum: B.10.20.451 (*) 2012.08 Nov  5 2012 
#Momentum Date and Time: Mon Jun 10 17:28:58 2013

NAME Momentum.SP

#  mode: MW    project: proj    reference: S_50

CONSTANT NBR_OF_PORTS 5

CONSTANT NORMALIZATION 1

VAR freq MAG 6

DATA S[1,1] RI
DATA S[1,2] RI
DATA S[1,3] RI
DATA S[1,4] RI
DATA S[1,5] RI
DATA S[2,1] RI
DATA S[2,2] RI
DATA S[2,3] RI
DATA S[2,4] RI
DATA S[2,5] RI
DATA S[3,1] RI
DATA S[3,2] RI
DATA S[3,3] RI
DATA S[3,4] RI
DATA S[3,5] RI
DATA S[4,1] RI
DATA S[4,2] RI
DATA S[4,3] RI
DATA S[4,4] RI
DATA S[4,5] RI
DATA S[5,1] RI
DATA S[5,2] RI
DATA S[5,3] RI
DATA S[5,4] RI
DATA S[5,5] RI
DATA PORTZ[1] RI
DATA PORTZ[2] RI
DATA PORTZ[3] RI
DATA PORTZ[4] RI
DATA PORTZ[5] RI

VAR_LIST_BEGIN
	 1000000000
	 1333333334
	 1666666667
	 2333333333
	 2666666666
	 3000000000
VAR_LIST_END

BEGIN
	 0.183707038,	 0.00106344591
	 0.194365767,	 0.0436853726
	 0.245575312,	 0.0777679959
	 0.435148369,	-0.0571733441
	 0.338633822,	-0.269852997
	 0.109330747,	-0.248759836
END
BEGIN
	 0.0439358516,	-0.243406957
	-0.0645015732,	-0.253299554
	-0.187172802,	-0.22649622
	-0.425940234,	 0.11470976
	-0.228306836,	 0.426210754
	 0.117541779,	 0.395714658
END
BEGIN
	 0.802304188,	-0.140635088
	 0.787933604,	-0.229258942
	 0.733663605,	-0.316006913
	 0.498092665,	-0.328161738
	 0.50659183,	-0.160963196
	 0.685301137,	-0.158672352
END
BEGIN
	 0.0773046913,	-0.233006897
	-0.0153104363,	-0.257349854
	-0.125462431,	-0.258645296
	-0.421426484,	-0.0326869272
	-0.354188285,	 0.289866426
	-0.0609572547,	 0.380807909
END
BEGIN
	 0.152491766,	-0.380783154
	 0.0057543309,	-0.366185196
	-0.114623111,	-0.296301375
	-0.12216369,	-0.0231322904
	 0.0369155694,	-0.0500211313
	 0.0323239207,	-0.196142929
END
BEGIN
	 0.0439358516,	-0.243406957
	-0.0645015732,	-0.253299554
	-0.187172802,	-0.22649622
	-0.425940234,	 0.11470976
	-0.228306836,	 0.426210754
	 0.117541779,	 0.395714658
END
BEGIN
	 0.180203241,	-0.0168570652
	 0.190439526,	 0.0197641712
	 0.241295255,	 0.0455993194
	 0.41690709,	-0.117842723
	 0.291843075,	-0.334790449
	 0.0484899342,	-0.292496139
END
BEGIN
	-0.0703341796,	 0.235193555
	 0.0255620189,	 0.256537446
	 0.13829792,	 0.25202951
	 0.422578301,	 0.00242652283
	 0.32877753,	-0.317910406
	 0.0248972173,	-0.384254458
END
BEGIN
	-0.79936611,	 0.157983432
	-0.782307817,	 0.252236715
	-0.724354208,	 0.344272239
	-0.477046617,	 0.363201424
	-0.483145661,	 0.193058089
	-0.665113967,	 0.195275268
END
BEGIN
	 0.145287056,	-0.383932206
	-0.00375699985,	-0.366554564
	-0.124385666,	-0.292472386
	-0.12124703,	-0.0200710694
	 0.028899178,	-0.0556866394
	 0.0157945239,	-0.192854099
END
BEGIN
	 0.802304188,	-0.140635088
	 0.787933604,	-0.229258942
	 0.733663605,	-0.316006913
	 0.498092665,	-0.328161738
	 0.50659183,	-0.160963196
	 0.685301137,	-0.158672352
END
BEGIN
	-0.0703341796,	 0.235193555
	 0.0255620189,	 0.256537446
	 0.13829792,	 0.25202951
	 0.422578301,	 0.00242652283
	 0.32877753,	-0.317910406
	 0.0248972173,	-0.384254458
END
BEGIN
	 0.192880215,	 0.0406430232
	 0.197363936,	 0.0954678407
	 0.236273055,	 0.154222418
	 0.455341375,	 0.155881064
	 0.495841411,	-0.0245949013
	 0.34785918,	-0.108150291
END
BEGIN
	-0.102096418,	 0.22122816
	-0.0230289849,	 0.253231443
	 0.0730380717,	 0.271614623
	 0.380795805,	 0.137608536
	 0.402684392,	-0.158382874
	 0.176325923,	-0.31306306
END
BEGIN
	-0.192786685,	 0.358699477
	-0.0598493524,	 0.356441156
	 0.0554434142,	 0.306159649
	 0.106972322,	 0.0528709825
	-0.047989799,	 0.034170929
	-0.0928880126,	 0.16092017
END
BEGIN
	 0.0773046913,	-0.233006897
	-0.0153104363,	-0.257349854
	-0.125462431,	-0.258645296
	-0.421426484,	-0.0326869272
	-0.354188285,	 0.289866426
	-0.0609572547,	 0.380807909
END
BEGIN
	-0.79936611,	 0.157983432
	-0.782307817,	 0.252236715
	-0.724354208,	 0.344272239
	-0.477046617,	 0.363201424
	-0.483145661,	 0.193058089
	-0.665113967,	 0.195275268
END
BEGIN
	-0.102096418,	 0.22122816
	-0.0230289849,	 0.253231443
	 0.0730380717,	 0.271614623
	 0.380795805,	 0.137608536
	 0.402684392,	-0.158382874
	 0.176325923,	-0.31306306
END
BEGIN
	 0.19211145,	 0.0330971567
	 0.194776613,	 0.0854330409
	 0.230899914,	 0.14319516
	 0.451482276,	 0.152906914
	 0.505838757,	-0.0319214252
	 0.359315879,	-0.132778551
END
BEGIN
	 0.196794686,	-0.35695093
	 0.0649489965,	-0.355968734
	-0.0500846599,	-0.307309958
	-0.103099651,	-0.0575503752
	 0.0457968384,	-0.0381458187
	 0.0926578165,	-0.155931152
END
BEGIN
	 0.152491766,	-0.380783154
	 0.0057543309,	-0.366185196
	-0.114623111,	-0.296301375
	-0.12216369,	-0.0231322904
	 0.0369155694,	-0.0500211313
	 0.0323239207,	-0.196142929
END
BEGIN
	 0.145287056,	-0.383932206
	-0.00375699985,	-0.366554564
	-0.124385666,	-0.292472386
	-0.12124703,	-0.0200710694
	 0.028899178,	-0.0556866394
	 0.0157945239,	-0.192854099
END
BEGIN
	-0.192786685,	 0.358699477
	-0.0598493524,	 0.356441156
	 0.0554434142,	 0.306159649
	 0.106972322,	 0.0528709825
	-0.047989799,	 0.034170929
	-0.0928880126,	 0.16092017
END
BEGIN
	 0.196794686,	-0.35695093
	 0.0649489965,	-0.355968734
	-0.0500846599,	-0.307309958
	-0.103099651,	-0.0575503752
	 0.0457968384,	-0.0381458187
	 0.0926578165,	-0.155931152
END
BEGIN
	-0.530835102,	-0.150085121
	-0.646268847,	 0.109107298
	-0.568841297,	 0.465288057
	 0.619754412,	 0.613324183
	 0.806310107,	-0.358586411
	 0.11835507,	-0.823517432
END
BEGIN
	 50 ,	 0 
	 50 ,	 0 
	 50 ,	 0 
	 50 ,	 0 
	 50 ,	 0 
	 50 ,	 0 
END
BEGIN
	 50 ,	 0 
	 50 ,	 0 
	 50 ,	 0 
	 50 ,	 0 
	 50 ,	 0 
	 50 ,	 0 
END
BEGIN
	 50 ,	 0 
	 50 ,	 0 
	 50 ,	 0 
	 50 ,	 0 
	 50 ,	 0 
	 50 ,	 0 
END
BEGIN
	 50 ,	 0 
	 50 ,	 0 
	 50 ,	 0 
	 50 ,	 0 
	 50 ,	 0 
	 50 ,	 0 
END
BEGIN
	 50 ,	 0 
	 50 ,	 0 
	 50 ,	 0 
	 50 ,	 0 
	 50 ,	 0 
	 50 ,	 0 
END
